"a [mm]","d [mm]","my_theta [deg]","p [mm]","Freq [MHz]","im(Z(1,1))/(2*pi*Freq)*1e6 []","re(Z(1,1)) []","im(Z(1,1))/re(Z(1,1)) []"
40,0.4,9.9,0.4,6.78,1.89223598080916,0.962972727510647,83.7087527349017
40,0.4,9.9,0.6,6.78,1.72040824220165,0.970240966131369,75.5373020237899
40,0.4,9.9,0.8,6.78,1.51175499116215,1.00520034028895,64.067583917142
40,0.4,9.9,1,6.78,1.45755053281499,0.761104844483929,81.5809383890994
40,0.4,9.9,1.2,6.78,1.34194515542286,0.719907413473575,79.4086262995038
40,0.4,9.9,1.4,6.78,1.24123713366222,0.694633220124569,76.1217515548328
40,0.4,9.9,1.6,6.78,1.15408086905034,0.643517699769056,76.3985836978621
40,0.6,9.9,0.4,6.78,1.6970470131045,1.09602304118371,65.9604715439263
40,0.6,9.9,0.6,6.78,1.53558152309726,0.888867248614689,73.5945299269392
40,0.6,9.9,0.8,6.78,1.42784437916089,0.629431099118083,96.6367335082524
40,0.6,9.9,1,6.78,1.30800530725556,0.640852908845857,86.9482225772533
40,0.6,9.9,1.2,6.78,1.20959368616745,0.588027265976443,87.6297573883373
40,0.6,9.9,1.4,6.78,1.11543265472482,0.574000000331837,82.7829739179917
40,0.6,9.9,1.6,6.78,1.03971742646438,0.525468642022842,84.2903934969047
40,0.8,9.9,0.4,6.78,1.5051675125701,0.960399898486591,66.7639914288322
40,0.8,9.9,0.6,6.78,1.39523079935104,0.57288269087793,103.750432596016
40,0.8,9.9,0.8,6.78,1.27441534672042,0.62605908317393,86.7171974968953
40,0.8,9.9,1,6.78,1.17618252778664,0.565978204166556,88.5288003322733
40,0.8,9.9,1.2,6.78,1.07878051656621,0.604204202672398,76.0604542308041
40,0.8,9.9,1.4,6.78,1.0064789785111,0.493548822345871,86.8728662749539
40,0.8,9.9,1.6,6.78,0.940032889233055,0.432201807168586,92.6543966654583
40,1,9.9,0.4,6.78,1.36142218785002,0.611089749416244,94.9068125150359
40,1,9.9,0.6,6.78,1.24332015843387,0.773757466981739,68.4522431278105
40,1,9.9,0.8,6.78,1.15093089246442,0.517707558262576,94.705304323235
40,1,9.9,1,6.78,1.06235526146028,0.488287047863395,92.6838639143821
40,1,9.9,1.2,6.78,0.984022545118007,0.441078681306731,95.0382746640823
40,1,9.9,1.4,6.78,0.909196727269037,0.425898510423062,90.9413307276644
40,1,9.9,1.6,6.78,0.853119848927861,0.366944641361025,99.0419218101096
40,1.2,9.9,0.4,6.78,1.21516912046587,0.689805095847768,75.0446763118893
40,1.2,9.9,0.6,6.78,1.11646942841365,0.599190475599557,79.3764179315449
40,1.2,9.9,0.8,6.78,1.03397466370203,0.479450154539299,91.8704822940595
40,1.2,9.9,1,6.78,0.955750700456532,0.434992919068833,93.5991704631567
40,1.2,9.9,1.2,6.78,0.888748125330209,0.382291493286543,99.0361218835707
40,1.2,9.9,1.4,6.78,0.827919595661959,0.349437798163429,100.931759431051
40,1.2,9.9,1.6,6.78,0.77104398227293,0.319538589911325,102.793439956117
40,1.4,9.9,0.4,6.78,1.08090568809422,0.776606013124004,59.2920703995078
40,1.4,9.9,0.6,6.78,0.963984957328901,0.817285696398726,50.2465121757523
40,1.4,9.9,0.8,6.78,0.924882833280916,0.468950103208565,84.0174787948485
40,1.4,9.9,1,6.78,0.86047177584575,0.399416409542724,91.7741326161115
40,1.4,9.9,1.2,6.78,0.804326322047575,0.338357676440029,101.266502271279
40,1.4,9.9,1.4,6.78,0.746126339347866,0.310157564931146,102.480103505764
40,1.4,9.9,1.6,6.78,0.691389271255437,0.297634484472228,98.9575536138922
40,1.6,9.9,0.4,6.78,0.9697210485091,0.643084375920414,64.2374697714727
40,1.6,9.9,0.6,6.78,0.898608634514682,0.491787735441598,77.8399334123172
40,1.6,9.9,0.8,6.78,0.838715002929437,0.372428657332016,95.9358400259709
40,1.6,9.9,1,6.78,0.780497370665154,0.332005768052476,100.1464081846
40,1.6,9.9,1.2,6.78,0.724762109658075,0.304216348109768,101.489822757965
40,1.6,9.9,1.4,6.78,0.6687670976647,0.288365071124067,98.7965561512568
40,1.6,9.9,1.6,6.78,0.618058652218534,0.273526801251646,96.2585612390102
40,0.4,29.9,0.4,6.78,1.80757255602555,0.903908721451396,85.1884515778025
40,0.4,29.9,0.6,6.78,1.63767101662482,0.964813638880574,72.3090725222107
40,0.4,29.9,0.8,6.78,1.4984132772755,0.857637547218282,74.428178195708
40,0.4,29.9,1,6.78,1.4048722153746,0.688603119232178,86.9115309262828
40,0.4,29.9,1.2,6.78,1.25765953903402,0.749226062250658,71.5088469460704
40,0.4,29.9,1.4,6.78,1.17861961688581,0.671163223526741,74.8092113153277
40,0.4,29.9,1.6,6.78,1.10530787974144,0.602532386006308,78.1470220892614
40,0.6,29.9,0.4,6.78,1.60879464608462,1.01133125363395,67.7667637160577
40,0.6,29.9,0.6,6.78,1.47970107965404,0.666758824640756,94.539822063351
40,0.6,29.9,0.8,6.78,1.37128229324465,0.577103715012195,101.223782159533
40,0.6,29.9,1,6.78,1.2545221282389,0.5736640730925,93.1601622476869
40,0.6,29.9,1.2,6.78,1.16332721918135,0.546632451386878,90.6600682108453
40,0.6,29.9,1.4,6.78,1.07408603847329,0.518351802646627,88.2722141989722
40,0.6,29.9,1.6,6.78,0.994037080649062,0.494417050567175,85.6482922490635
40,0.8,29.9,0.4,6.78,1.44469159571265,1.02657702954561,59.9505492331972
40,0.8,29.9,0.6,6.78,1.3404726251744,0.53353583034455,107.029604640856
40,0.8,29.9,0.8,6.78,1.2224245923576,0.569224793941187,91.4845659690475
40,0.8,29.9,1,6.78,1.13576297707176,0.479874291170362,100.825361152051
40,0.8,29.9,1.2,6.78,1.05219345384691,0.440937686035212,101.654811433323
40,0.8,29.9,1.4,6.78,0.96220085277307,0.468514411265353,87.4887769979966
40,0.8,29.9,1.6,6.78,0.901410141389552,0.407551708485601,94.2213416432297
40,1,29.9,0.4,6.78,1.30328897929515,0.568333150890826,97.6893670843112
40,1,29.9,0.6,6.78,1.1909172680186,0.632196804334084,80.2488575738685
40,1,29.9,0.8,6.78,1.10300769394085,0.512266080893684,91.7260102210394
40,1,29.9,1,6.78,1.01963322288329,0.463409051395036,93.7322468685625
40,1,29.9,1.2,6.78,0.947805504318257,0.398399845707917,101.346703545265
40,1,29.9,1.4,6.78,0.874872675757076,0.411446277856833,90.5818689542823
40,1,29.9,1.6,6.78,0.823498367142488,0.344701422788521,101.772215436818
40,1.2,29.9,0.4,6.78,1.16333911612437,0.735418932843529,67.3877703244683
40,1.2,29.9,0.6,6.78,1.06995027580982,0.584691694839914,77.9554050132742
40,1.2,29.9,0.8,6.78,0.983696342062067,0.533675069593515,78.5224249755858
40,1.2,29.9,1,6.78,0.920231937954869,0.41612415722064,94.2071652122708
40,1.2,29.9,1.2,6.78,0.848544490252265,0.406747756031919,88.8707846060024
40,1.2,29.9,1.4,6.78,0.799185815570504,0.325367023381451,104.63664233261
40,1.2,29.9,1.6,6.78,0.738749081452396,0.305597526884283,102.980899480561
40,1.4,29.9,0.4,6.78,1.04992860096814,0.534125019379292,83.738737150508
40,1.4,29.9,0.6,6.78,0.967935781025602,0.471094747169271,87.5281692655743
40,1.4,29.9,0.8,6.78,0.892932821130474,0.420533331333797,90.4540309075738
40,1.4,29.9,1,6.78,0.827204968294445,0.372365000680758,94.6354479949847
40,1.4,29.9,1.2,6.78,0.779038594556584,0.306810685110831,108.167814618609
40,1.4,29.9,1.4,6.78,0.721302508300791,0.290984423486443,105.598381783696
40,1.4,29.9,1.6,6.78,0.667224352007218,0.275971900678529,102.995105342452
40,1.6,29.9,0.4,6.78,0.934826768611307,0.573845474399967,69.3978060956442
40,1.6,29.9,0.6,6.78,0.868529068845998,0.43542871498711,84.9721984738309
40,1.6,29.9,0.8,6.78,0.804879286339349,0.377317602412583,90.8726612999514
40,1.6,29.9,1,6.78,0.754269263630002,0.309140722679313,103.939292189386
40,1.6,29.9,1.2,6.78,0.697980884623323,0.290479954523229,102.361566425245
40,1.6,29.9,1.4,6.78,0.645010733732556,0.274525619493683,100.090676325484
40,1.6,29.9,1.6,6.78,0.598932684993318,0.25564590882269,99.8041796627344
40,1.2,30,0.8,6.78,0.99731630527272,0.430330457491501,98.7280129895112
40,0.4,49.9,0.4,6.78,1.72628650270928,0.839099990852538,87.6412818169177
40,0.4,49.9,0.6,6.78,1.52362766536519,0.996069285849283,65.1626688576821
40,0.4,49.9,0.8,6.78,1.39558931075037,0.857485217148291,69.3330898314343
40,0.4,49.9,1,6.78,1.34732324950924,0.640626178020282,89.5935375803109
40,0.4,49.9,1.2,6.78,1.22732295959448,0.672026645472923,77.8004175746758
40,0.4,49.9,1.4,6.78,1.13975822172567,0.608401452028415,79.8053587162922
40,0.4,49.9,1.6,6.78,1.06125709518659,0.586774718479102,77.0475396984061
40,0.6,49.9,0.4,6.78,1.53616148022911,0.879623213383951,74.3960283281021
40,0.6,49.9,0.6,6.78,1.40959253063874,0.691933313561377,86.7838497285089
40,0.6,49.9,0.8,6.78,1.31320526936562,0.542392070234904,103.140408561763
40,0.6,49.9,1,6.78,1.19628847015752,0.59963061981228,84.9887961313642
40,0.6,49.9,1.2,6.78,1.11110170620551,0.519989742270169,91.0266584461758
40,0.6,49.9,1.4,6.78,1.0285625107103,0.501323953975405,87.4020857933433
40,0.6,49.9,1.6,6.78,0.952938812403462,0.452606519815812,89.6920132255733
40,0.8,49.9,0.4,6.78,1.36432048848208,0.922650145253068,62.9925093202125
40,0.8,49.9,0.6,6.78,1.28149937916719,0.511879910774665,106.649758601208
40,0.8,49.9,0.8,6.78,1.17389512663054,0.52556332270419,95.151099758631
40,0.8,49.9,1,6.78,1.07570736721678,0.547807991086233,83.6518099368886
40,0.8,49.9,1.2,6.78,1.00213982636266,0.455813613038977,93.6592321000643
40,0.8,49.9,1.4,6.78,0.931286393024249,0.400184776595761,99.1361973125345
40,0.8,49.9,1.6,6.78,0.864978663060443,0.382249890544895,96.3979031228537
40,1,49.9,0.4,6.78,1.25031764752265,0.531620589666454,100.190865999154
40,1,49.9,0.6,6.78,1.139820837053,0.521826533435865,93.0507753518175
40,1,49.9,0.8,6.78,1.0580762435745,0.469041620692809,96.0981758554667
40,1,49.9,1,6.78,0.980119323592404,0.4098785309996,101.86695931061
40,1,49.9,1.2,6.78,0.849566436377246,0.715401046109329,50.5891448067356
40,1,49.9,1.4,6.78,0.843563567891649,0.368229143624407,97.5908766672669
40,1,49.9,1.6,6.78,0.791143559063823,0.322437070750131,104.524931565375
40,1.2,49.9,0.4,6.78,1.11474880828099,0.607304853425098,78.1951517965622
40,1.2,49.9,0.6,6.78,1.01878454258663,0.575383741333385,75.4283006473964
40,1.2,49.9,0.8,6.78,0.944898432726467,0.488539467925436,82.3938953941154
40,1.2,49.9,1,6.78,0.883222420952949,0.386604040579192,97.3225005132564
40,1.2,49.9,1.2,6.78,0.816109002829014,0.356881925217886,97.4166471085944
40,1.2,49.9,1.4,6.78,0.76720158545766,0.306998246933493,106.459190212774
40,1.2,49.9,1.6,6.78,0.71417455749498,0.286552477035376,106.171944073373
40,1.4,49.9,0.4,6.78,1.00197005268364,0.558930400697144,76.3671479787741
40,1.4,49.9,0.6,6.78,0.926145880121911,0.460310177969076,85.7113594948052
40,1.4,49.9,0.8,6.78,0.859744137404797,0.390754348776728,93.72921186451
40,1.4,49.9,1,6.78,0.79950470325649,0.344454146763207,98.8778848700399
40,1.4,49.9,1.2,6.78,0.743774337298488,0.299805127005062,105.684597174714
40,1.4,49.9,1.4,6.78,0.69369907601896,0.275589353821501,107.230477953132
40,1.4,49.9,1.6,6.78,0.639858689558037,0.260607723801054,104.593898688151
40,1.6,49.9,0.4,6.78,0.856404414540589,0.952243425264995,38.3124986674343
40,1.6,49.9,0.6,6.78,0.833197926621905,0.434553303433624,81.6798040187242
40,1.6,49.9,0.8,6.78,0.769838947053992,0.366948707594472,89.3725354007444
40,1.6,49.9,1,6.78,0.72584070658659,0.293107513348537,105.493070176678
40,1.6,49.9,1.2,6.78,0.667111857268937,0.281555015760003,100.935735880203
40,1.6,49.9,1.4,6.78,0.622263128590537,0.258761826720809,102.443267474811
40,1.6,49.9,1.6,6.78,0.573287291420969,0.255775739625649,95.4822242973949
40,0.4,69.9,0.6,6.78,1.48661206965501,0.896042735857272,70.6770628849067
40,0.4,69.9,0.8,6.78,1.37206989792956,0.75057374838543,77.8739901499528
40,0.4,69.9,1,6.78,1.28151756625592,0.628556256351315,86.8540295879686
40,0.4,69.9,1.2,6.78,1.16826788891659,0.651544646825375,76.3849539465005
40,0.4,69.9,1.4,6.78,1.08189562966467,0.63064837682672,73.0815325999215
40,0.4,69.9,1.6,6.78,1.01164539553517,0.599564093439184,71.8790378909211
40,0.6,69.9,0.4,6.78,1.45662976013476,1.01550231684161,61.1051510996401
40,0.6,69.9,0.6,6.78,1.33250521706732,0.767806127836362,73.9310554695972
40,0.6,69.9,0.8,6.78,1.2520766520657,0.527079258030339,101.19628127306
40,0.6,69.9,1,6.78,1.142335624617,0.566212863711377,85.9455808854489
40,0.6,69.9,1.2,6.78,1.05543807631205,0.540319107821779,83.2131560445647
40,0.6,69.9,1.4,6.78,0.977823478080135,0.519836325245157,80.1315233395168
40,0.6,69.9,1.6,6.78,0.901892277578727,0.488690780085005,78.6194651671873
40,0.8,69.9,0.4,6.78,1.30711516205589,0.83223216350985,66.9081340722117
40,0.8,69.9,0.6,6.78,1.2234648584966,0.486234221361159,107.19031334402
40,0.8,69.9,0.8,6.78,1.10610275776756,0.609073125127893,77.3634093112772
40,0.8,69.9,1,6.78,1.02632374259364,0.524725732716633,83.3223625142011
40,0.8,69.9,1.2,6.78,0.955237737511109,0.46370730282011,87.7560562775023
40,0.8,69.9,1.4,6.78,0.887116850597127,0.415653491161072,90.9199018655789
40,0.8,69.9,1.6,6.78,0.826044367371745,0.404407693939524,87.0148802540584
40,1,69.9,0.4,6.78,1.19370837210826,0.509158040592805,99.8746327850931
40,1,69.9,0.6,6.78,1.07372025255995,0.666341282457245,68.6442219314188
40,1,69.9,0.8,6.78,0.999093316883865,0.525308053285084,81.0217384238578
40,1,69.9,1,6.78,0.876417645376041,0.57637521535335,64.7761866371118
40,1,69.9,1.2,6.78,0.859571824837403,0.410091999965562,89.2915653848405
40,1,69.9,1.4,6.78,0.804448053852401,0.380143505121225,90.1488088642631
40,1,69.9,1.6,6.78,0.757434628299079,0.314642439700907,102.550413912146
40,1.2,69.9,0.4,6.78,1.0579247797719,0.726460759568101,62.0372004927312
40,1.2,69.9,0.6,6.78,0.985406322323272,0.460735499117301,91.1115072462682
40,1.2,69.9,0.8,6.78,0.904217323520259,0.473903514099819,81.2816397537918
40,1.2,69.9,1,6.78,0.834903693506644,0.423186559875102,84.0454251046259
40,1.2,69.9,1.2,6.78,0.777509156872878,0.366707759863197,90.3222971955644
40,1.2,69.9,1.4,6.78,0.737095954487646,0.291197611020455,107.831533661361
40,1.2,69.9,1.6,6.78,0.680135499127425,0.288680408433342,100.36624916737
40,1.4,69.9,0.4,6.78,0.943856511683332,0.640646124242755,62.7620810646484
40,1.4,69.9,0.6,6.78,0.837235026056664,0.680408389869924,52.418826123357
40,1.4,69.9,0.8,6.78,0.821029284110562,0.393625252181054,88.8556929195555
40,1.4,69.9,1,6.78,0.76564982006337,0.352157064944245,92.6196939148768
40,1.4,69.9,1.2,6.78,0.712705003428032,0.293926455394361,103.295331232484
40,1.4,69.9,1.4,6.78,0.660027882044412,0.277283417369897,101.402332870306
40,1.4,69.9,1.6,6.78,0.613198107303152,0.259590720084618,100.628547678684
40,1.6,69.9,0.4,6.78,0.855783675633667,0.54030199319981,67.4740829113817
40,1.6,69.9,0.6,6.78,0.792184445868079,0.463946375751562,72.7391273910173
40,1.6,69.9,0.8,6.78,0.734037684401847,0.392202296683997,79.7292697280211
40,1.6,69.9,1,6.78,0.689795768142951,0.291499741482909,100.807284007142
40,1.6,69.9,1.2,6.78,0.641248736215966,0.2701428597394,101.121287712542
40,1.6,69.9,1.4,6.78,0.594681786937888,0.256333727877998,98.8299205965424
40,1.6,69.9,1.6,6.78,0.551717932132297,0.241178294387565,97.4514807511056
40,0.4,89.9,0.4,6.78,1.56425338760818,0.770808352159203,86.4510464462851
40,0.4,89.9,0.6,6.78,1.42190469302612,0.777450671257474,77.9125120330167
40,0.4,89.9,0.8,6.78,1.2958097205035,0.740021203896757,74.5944698819586
40,0.4,89.9,1,6.78,1.2234237114421,0.589332115046759,88.4354413262891
40,0.4,89.9,1.2,6.78,1.11493427764016,0.618957767511844,76.7357624177246
40,0.4,89.9,1.4,6.78,1.02157034997831,0.586477955088782,74.2038005625271
40,0.4,89.9,1.6,6.78,0.961734249656301,0.560615599776026,73.0801561227044
40,0.6,89.9,0.4,6.78,1.38588913134518,0.894608097443933,65.9941175927003
40,0.6,89.9,0.6,6.78,1.27922302875617,0.630945680134837,86.3701870278356
40,0.6,89.9,0.8,6.78,1.19262904337985,0.54568258957674,93.1053947923564
40,0.6,89.9,1,6.78,1.06329493012633,0.638211525050314,70.973898776789
40,0.6,89.9,1.2,6.78,1.00919650569489,0.508081039542252,84.6159650648371
40,0.6,89.9,1.4,6.78,0.936403379309698,0.569032439814918,70.1028232841963
40,0.6,89.9,1.6,6.78,0.883469177547225,0.414019238422897,90.9034660106208
40,0.8,89.9,0.4,6.78,1.25340297038053,0.692892149298446,77.0610001257922
40,0.8,89.9,0.6,6.78,1.16166335534099,0.490875638566762,100.81342573835
40,0.8,89.9,0.8,6.78,1.05870560920279,0.568621297280295,79.3161553006827
40,0.8,89.9,1,6.78,0.986902775921051,0.461844965868022,91.0306656807976
40,0.8,89.9,1.4,6.78,0.844647231467969,0.476516362202586,75.510458526242
40,0.8,89.9,1.6,6.78,0.786352501129221,0.444185881473289,75.4157552070433
40,1,89.9,0.4,6.78,1.14290627706665,0.463735197587548,104.990528047178
40,1,89.9,0.6,6.78,1.02662075781599,0.55926930500988,78.1985354418303
40,1,89.9,0.8,6.78,0.9608532289179,0.454671729633854,90.0261472362693
40,1,89.9,1,6.78,0.88619360475697,0.460995683046581,81.8919693727032
40,1,89.9,1.2,6.78,0.830280737410254,0.367399594501189,96.2710817857728
40,1,89.9,1.4,6.78,0.750363383182023,0.370073806534194,86.3759521610304
40,1,89.9,1.6,6.78,0.724396168513613,0.301179551732611,102.461385511665
40,1.2,89.9,0.4,6.78,0.980568498790433,0.860981057484317,48.5169959760711
40,1.2,89.9,0.6,6.78,0.946180135686968,0.426598015516291,94.4853677034673
40,1.2,89.9,0.8,6.78,0.860962942750197,0.455920759836234,80.4460368506847
40,1.2,89.9,1,6.78,0.806779418849007,0.366941896708092,93.6627859421769
40,1.2,89.9,1.2,6.78,0.748770467430717,0.326922772216348,97.5692790922971
40,1.2,89.9,1.4,6.78,0.703834828926319,0.28868899674713,103.860422475772
40,1.2,89.9,1.6,6.78,0.651382874564722,0.279392668379221,99.3186695311977
40,1.4,89.9,0.4,6.78,0.90854665483776,0.618839644242342,62.5429940852749
40,1.4,89.9,0.6,6.78,0.84345169672091,0.469627765824016,76.5096143032108
40,1.4,89.9,0.8,6.78,0.778265355031381,0.423324099330671,78.3184830760189
40,1.4,89.9,1,6.78,0.729525637573197,0.328277511354008,94.66926136215
40,1.4,89.9,1.2,6.78,0.681773385828051,0.285640129504589,101.678793594071
40,1.4,89.9,1.4,6.78,0.631385678764936,0.269067797755083,99.9637558112528
40,1.4,89.9,1.6,6.78,0.585479174298333,0.254155873497133,98.1343077539515
40,1.6,89.9,0.4,6.78,0.812219776366825,0.617094495250753,56.0701153574643
40,1.6,89.9,0.6,6.78,0.751969469599645,0.524650903309307,61.0575460420839
40,1.6,89.9,0.8,6.78,0.700141099958117,0.386384480095131,77.1925630093535
40,1.6,89.9,1,6.78,0.665966947050443,0.275897528470861,102.8287193893
40,1.6,89.9,1.2,6.78,0.610552614931607,0.269674321822055,96.4479636466211
40,1.6,89.9,1.4,6.78,0.568022106900461,0.247001569585745,97.9659349526542
40,1.6,89.9,1.6,6.78,0.528037974544114,0.238131291737224,94.4622424100316
45,0.4,9.9,0.4,6.78,2.28702561013725,1.18818157127035,81.9969650049135
45,0.4,9.9,0.6,6.78,2.09157197261824,1.02752466995802,86.7141793016873
45,0.4,9.9,0.8,6.78,1.9283581350884,0.949518400223748,86.5154899156405
45,0.4,9.9,1,6.78,1.7927177830635,0.865122720850742,88.2762286009166
45,0.4,9.9,1.2,6.78,1.66671717887549,0.826128690957573,85.9456239302661
45,0.4,9.9,1.4,6.78,1.55674815407719,0.777294423065161,85.3183346805887
45,0.4,9.9,1.6,6.78,1.45260438219661,0.745124981130918,83.047734264817
45,0.6,9.9,0.4,6.78,2.06099420504312,0.950310479798888,92.3891165528733
45,0.6,9.9,0.6,6.78,1.89292490708504,0.813378794374081,99.1402711163091
45,0.6,9.9,0.8,6.78,1.75462598065642,0.742091418294832,100.724868373587
45,0.6,9.9,1,6.78,1.62995199784556,0.683786088037736,101.546302896305
45,0.6,9.9,1.2,6.78,1.52199071269593,0.62936174564398,103.01992344478
45,0.6,9.9,1.4,6.78,1.41458527533664,0.624538284350978,96.4894052491171
45,0.6,9.9,1.6,6.78,1.33032806035494,0.56449562681517,100.393993977655
45,0.8,9.9,0.4,6.78,1.86663467686205,0.785487588551959,101.234738321831
45,0.8,9.9,0.6,6.78,1.72167481945574,0.687782192339376,106.637452812636
45,0.8,9.9,0.8,6.78,1.59338297600812,0.649642200610545,104.485375103977
45,0.8,9.9,1,6.78,1.48655378667874,0.571999940842966,110.711874973001
45,0.8,9.9,1.2,6.78,1.38680870195361,0.530317377282802,111.401300838734
45,0.8,9.9,1.4,6.78,1.29197062237102,0.52081234785154,105.677110127235
45,0.8,9.9,1.6,6.78,1.20880365390054,0.490703382454449,104.941260086608
45,1,9.9,0.4,6.78,1.6876243103703,0.991290679998258,72.5244279682122
45,1,9.9,0.6,6.78,1.56612972905298,0.602809903662993,110.676882358853
45,1,9.9,0.8,6.78,1.45125897065045,0.560368996515392,110.326637063225
45,1,9.9,1,6.78,1.35135326253305,0.520300083980202,110.643157416476
45,1,9.9,1.2,6.78,1.26256955056859,0.4793704304285,112.200200248111
45,1,9.9,1.4,6.78,1.17920901092403,0.450268065325782,111.565317348097
45,1,9.9,1.6,6.78,1.10265130068659,0.42938260178339,109.396471178634
45,1.2,9.9,0.4,6.78,1.53702289947434,0.628135302941918,104.240550803358
45,1.2,9.9,0.6,6.78,1.42372574954582,0.537090531918749,112.924559596876
45,1.2,9.9,0.8,6.78,1.32385330969978,0.494439332541719,114.060800775084
