"a [mm]","d [mm]","my_theta [deg]","p [mm]","Freq [MHz]","im(Z(1,1))/(2*pi*Freq)*1e6 []","re(Z(1,1)) []","im(Z(1,1))/re(Z(1,1)) []"
50,0.4,9.9,0.6,6.78,3.39441189275217,1.65446554086128,87.4009949323472
50,0.4,9.9,0.8,6.78,3.08441407966886,1.44185055648857,91.1301299883466
50,0.4,9.9,1,6.78,2.81728776541879,1.32115863138327,90.8418154829323
50,0.6,9.9,0.4,6.78,3.40586328357119,1.68826590127034,85.9401137290364
50,0.6,9.9,0.6,6.78,3.05428176522418,1.37408404205986,94.6902723323818
50,0.6,9.9,0.8,6.78,2.77685190293543,1.15889354101487,102.074847113815
50,0.6,9.9,1,6.78,2.53959652077509,1.05131812900379,102.905866087361
50,0.8,9.9,0.4,6.78,3.04503073580152,1.40613326081005,92.2517814958436
50,0.8,9.9,0.6,6.78,2.74659911803165,1.1524835900994,101.524319736928
50,0.8,9.9,0.8,6.78,2.50726129840363,0.995580980844735,107.283409684862
50,0.8,9.9,1,6.78,2.29585454480112,0.90742935555499,107.780726626223
50,1,9.9,0.4,6.78,2.73768089475534,1.24677631616587,93.5413952778261
50,1,9.9,0.6,6.78,2.47530717885063,0.979159640274863,107.692425757512
50,1,9.9,0.8,6.78,2.26116973168113,0.856377879957199,112.480511985025
50,1,9.9,1,6.78,2.07609522818299,0.760111136210756,116.353576467228
50,1.2,9.9,0.4,6.78,2.45105086585491,1.06730591003037,97.8302069143486
50,1.2,9.9,0.6,6.78,2.2267752660288,0.867741837442876,109.318940478202
50,1.2,9.9,0.8,6.78,2.03603130847381,0.7816934358859,110.957726385031
50,1.2,9.9,1,6.78,1.87340173055501,0.67611849559836,118.036864047502
50,0.4,29.9,0.4,6.78,3.60547304637458,1.84523193098373,83.2378500254521
50,0.4,29.9,0.6,6.78,3.2376657541121,1.49393100615228,92.3232390555498
50,0.4,29.9,0.8,6.78,2.94444066012729,1.31024681356807,95.7324682430262
50,0.4,29.9,1,6.78,2.69436634026906,1.19519481385709,96.0345501991065
50,0.6,29.9,0.4,6.78,3.23409929868403,1.48557493239135,92.7402687142719
50,0.6,29.9,0.6,6.78,2.91347119788646,1.20778500509759,102.761552732615
50,0.6,29.9,0.8,6.78,2.65653209612479,1.04156748462126,108.651872640334
50,0.6,29.9,1,6.78,2.43627885701175,0.945940192619793,109.716736116751
50,0.8,29.9,0.4,6.78,2.89208847916493,1.28109274243152,96.1702105321194
50,0.8,29.9,0.6,6.78,2.62508733724008,1.04337999987716,107.179274170299
50,0.8,29.9,0.8,6.78,2.39940787293382,0.89632069147505,114.038164777092
50,0.8,29.9,1,6.78,2.20032894477884,0.804310278770148,116.539608609262
50,1,29.9,0.4,6.78,2.60862715263523,1.06973891126328,103.882831685333
50,1,29.9,0.6,6.78,2.36599915098719,0.925218255745924,108.938139349848
50,1,29.9,0.8,6.78,2.16462678604822,0.804746533205913,114.586505751254
50,1,29.9,1,6.78,1.99381539327231,0.689727988153632,123.144964391684
50,1.2,29.9,0.4,6.78,2.34491563819215,1.00906946954151,98.9955604841148
50,1.2,29.9,0.6,6.78,2.13532852294023,0.794124888932657,114.547457989062
50,1.2,29.9,0.8,6.78,1.95552651422045,0.699118694528117,119.157766891429
50,1.2,29.9,1,6.78,1.80449464131071,0.599684349418811,128.186545583353
50,0.4,49.9,0.4,6.78,3.41110353481192,1.72880325633776,84.0540979496725
50,0.4,49.9,0.6,6.78,3.07489210459578,1.38533579212213,94.554975968856
50,0.4,49.9,0.8,6.78,2.80377640687815,1.23024826950016,97.086797642377
50,0.4,49.9,1,6.78,2.56798980587702,1.10659881379051,98.8581905906723
50,0.6,49.9,0.4,6.78,3.0413809615669,1.36182866958005,95.1388532604824
50,0.6,49.9,0.6,6.78,2.76665925143782,1.13332904314101,103.994223757565
50,0.6,49.9,0.8,6.78,2.52871872874933,0.993417824110882,108.437161165237
50,0.6,49.9,1,6.78,2.32275523717178,0.893589398185962,110.73247388816
50,0.8,49.9,0.4,6.78,2.75841881930024,1.16646036759358,100.739497876402
50,0.8,49.9,0.6,6.78,2.49802859432998,0.95156523307961,111.83259474275
50,0.8,49.9,0.8,6.78,2.28395560486589,0.827250437252414,117.614323455227
50,0.8,49.9,1,6.78,2.10276895187426,0.755807050800367,118.519600536395
50,1,49.9,0.4,6.78,2.47724904468745,1.006166928677,104.883988267671
50,1,49.9,0.6,6.78,2.25881708017432,0.817662691071103,117.68373498674
50,1,49.9,0.8,6.78,2.07071459318379,0.729797013818995,120.872561148991
50,1,49.9,1,6.78,1.90483609189776,0.653566111743442,124.158840500427
50,1.2,49.9,0.4,6.78,2.23537057190065,0.907339111094058,104.95169569191
50,1.2,49.9,0.6,6.78,2.03837470773311,0.74625405843653,116.36084815123
50,1.2,49.9,0.8,6.78,1.87047380432723,0.65497942609965,121.656000361316
50,1.2,49.9,1,6.78,1.7219683771128,0.589313635998673,124.476750842153
50,0.4,69.9,0.4,6.78,3.2525401743951,1.68191262322079,82.3813304869616
50,0.4,69.9,0.6,6.78,2.91891300230152,1.32061202731967,94.1576184125547
50,0.4,69.9,0.8,6.78,2.66742509913455,1.16394853373228,97.6265670526043
50,0.4,69.9,1,6.78,2.44618647010459,1.06011201991336,98.2986069588446
50,0.6,69.9,0.4,6.78,2.92629108100423,1.32385347371605,94.164491720917
50,0.6,69.9,0.6,6.78,2.63454251249403,1.05076742864227,106.809079195835
50,0.6,69.9,0.8,6.78,2.40891210131065,0.945773404422756,108.503417755392
50,0.6,69.9,1,6.78,2.21653823937355,0.832467906144557,113.427220776224
50,0.8,69.9,0.4,6.78,2.62869435525271,1.13813749105278,98.3908982045273
50,0.8,69.9,0.6,6.78,2.37789133917734,0.902692833824242,112.217754092726
50,0.8,69.9,0.8,6.78,2.17866452614543,0.816451418933095,113.676207525176
50,0.8,69.9,1,6.78,2.00424808073795,0.734665225403347,116.217507018315
50,1,69.9,0.4,6.78,2.36134351263597,0.965448503923622,104.19325804301
50,1,69.9,0.6,6.78,2.14979310293596,0.788840662665008,116.095914857103
50,1,69.9,0.8,6.78,1.97192923447452,0.704447882726256,119.248251453904
50,1,69.9,1,6.78,1.81861992471144,0.622845260100113,124.385954549481
50,1.2,69.9,0.4,6.78,2.13107066562671,0.888421779225279,102.185251160877
50,1.2,69.9,0.6,6.78,1.94128408870854,0.740587845891166,111.666287281855
50,1.2,69.9,0.8,6.78,1.78424417168279,0.627337745202056,121.160883177879
50,1.2,69.9,1,6.78,1.64421279452316,0.574834246614597,121.849836733893
50,0.4,89.9,0.4,6.78,3.12820852054234,1.56400713423852,85.205283749711
50,0.4,89.9,0.6,6.78,2.78076748893792,1.47304764213508,80.4187736916112
50,0.4,89.9,0.8,6.78,2.53241125618172,1.48300191773088,72.7448218798399
50,0.4,89.9,1,6.78,2.32384720369262,1.34053077061622,73.8482731177399
50,0.6,89.9,0.4,6.78,2.76120742714661,1.37090707627939,85.8026254613159
50,0.6,89.9,0.6,6.78,2.5022116825593,1.05956086038695,100.602251943123
50,0.6,89.9,0.8,6.78,2.28900539903678,0.979886946061603,99.5131347660241
50,0.6,89.9,1,6.78,2.10730595892546,0.835260658122383,107.476900000558
50,0.8,89.9,0.4,6.78,2.47871523741763,1.14276753055889,92.4013478892218
50,0.8,89.9,0.6,6.78,2.25909083087801,0.946345217936873,101.693609688598
50,0.8,89.9,0.8,6.78,2.07295133822343,0.78637093578815,112.297791653855
50,0.8,89.9,1,6.78,1.91275385790397,0.744296205819167,109.476988852821
50,1,89.9,0.4,6.78,2.24815368508474,0.963298882461117,99.4201702047327
50,1,89.9,0.6,6.78,2.04255150290928,0.780080160660018,111.543263145864
50,1,89.9,0.8,6.78,1.87451880292068,0.710262442605858,112.429560446286
50,1,89.9,1,6.78,1.72921463887704,0.622966068865582,118.248073278177
50,1.2,89.9,0.4,6.78,2.01779608868066,0.924391786266748,92.9888250369766
50,1.2,89.9,0.6,6.78,1.84983934565296,0.689680601246151,114.260353692659
50,1.2,89.9,0.8,6.78,1.70073297222607,0.604118045631469,119.928909570976
50,1.2,89.9,1,6.78,1.56814450698328,0.551630287578564,121.100947190992
55,0.4,9.9,0.4,6.78,4.55782405809852,2.62382820582698,74.0000004408372
55,0.4,9.9,0.6,6.78,4.04562076211217,2.08855871674728,82.5178762989585
55,0.4,9.9,0.8,6.78,3.65724417143818,1.77183236510303,87.9307724265303
55,0.4,9.9,1,6.78,3.35628893673519,1.5504236425068,92.2185992552117
55,0.6,9.9,0.4,6.78,4.08102322798217,2.16951871850728,80.1337058153068
55,0.6,9.9,0.6,6.78,3.6563135015695,1.65071134048839,94.3586792677584
55,0.6,9.9,0.8,6.78,3.32630559425317,1.41910149708335,99.8523407762587
55,0.6,9.9,1,6.78,3.0503917376297,1.22792014843937,105.826650986981
55,0.8,9.9,0.4,6.78,3.69039816231581,1.81158151211087,86.7810514262257
55,0.8,9.9,0.6,6.78,3.30578556590313,1.40524360627525,100.214975197544
55,0.8,9.9,0.8,6.78,3.01866237781464,1.18762949653302,108.278723920911
55,0.8,9.9,1,6.78,2.77639475187959,1.06677714187992,110.870773044994
55,1,9.9,0.4,6.78,3.3222467026901,1.56064313056939,90.685496731931
55,1,9.9,0.6,6.78,3.00285841520984,1.21833810142624,104.996927762402
55,1,9.9,0.8,6.78,2.74487861454961,1.03339937963758,113.15259265175
55,1,9.9,1,6.78,2.52282360635714,0.914587311215531,117.509039527469
55,1.2,9.9,0.4,6.78,3.0004026193477,1.36807304958748,93.4285934287865
55,1.2,9.9,0.6,6.78,2.71833858543502,1.06605041379184,108.62639553277
55,1.2,9.9,0.8,6.78,2.49466002090497,0.906546892570986,117.227811090026
55,1.2,9.9,1,6.78,2.29929443669378,0.804851254264499,121.699424790455
55,0.4,29.9,0.4,6.78,4.28992596072375,2.30038554836712,79.4435656833736
55,0.4,29.9,0.6,6.78,3.83160864431134,1.8359566689083,88.9054285167618
55,0.4,29.9,0.8,6.78,3.48800004958354,1.562293755106,95.1093794041037
55,0.4,29.9,1,6.78,3.19856870170498,1.39470889136163,97.6971007830531
55,0.6,29.9,0.4,6.78,3.86621693791253,1.82440042860147,90.2766876107211
55,0.6,29.9,0.6,6.78,3.47503055448169,1.46623684831995,100.963421578333
55,0.6,29.9,0.8,6.78,3.16588710401553,1.26582496860604,106.544571740867
55,0.6,29.9,1,6.78,2.91320563988481,1.13487809757567,109.353198362183
55,0.8,29.9,0.4,6.78,3.49462752218642,1.6026239442446,92.8921100540012
55,0.8,29.9,0.6,6.78,3.14933493099532,1.23769413730481,108.396454846582
55,0.8,29.9,0.8,6.78,2.88057246680652,1.05670205343848,116.127697742893
55,0.8,29.9,1,6.78,2.6558471359392,0.934688115767063,121.044738320125
55,1,29.9,0.4,6.78,3.15689687519533,1.34130526300314,100.263377154506
55,1,29.9,0.6,6.78,2.85936532660713,1.08732877651463,112.025870372593
55,1,29.9,0.8,6.78,2.6198727926366,0.934573414246542,119.419801363997
55,1,29.9,1,6.78,2.41939042655194,0.82242916441973,125.319027921531
55,1.2,29.9,0.4,6.78,2.85515481777061,1.21244273376076,100.317797717127
55,1.2,29.9,0.6,6.78,2.59808254562979,0.963329276595532,114.891459996805
55,1.2,29.9,0.8,6.78,2.38773323597446,0.828584380060143,122.760493273996
55,1.2,29.9,1,6.78,2.20553948691726,0.728820885305242,128.915040799328
55,0.4,49.9,0.4,6.78,4.06678594442139,2.08188417961449,83.215516126145
55,0.4,49.9,0.6,6.78,3.63638070188012,1.66241510935042,93.1835880670395
55,0.4,49.9,0.8,6.78,3.31410512334601,1.43014609650209,98.7177929665083
55,0.4,49.9,1,6.78,3.04892292298356,1.29231249428916,100.505184360696
55,0.6,49.9,0.4,6.78,3.64174489872145,1.68609760133467,92.010284214487
55,0.6,49.9,0.6,6.78,3.29298436003034,1.35779201419699,103.315618562148
55,0.6,49.9,0.8,6.78,3.0149776248394,1.15399360226734,111.298741743161
55,0.6,49.9,1,6.78,2.77663300213548,1.02112485444463,115.837505406063
55,0.8,49.9,0.4,6.78,3.31165840565,1.4391612294555,98.0269848950347
55,0.8,49.9,0.6,6.78,2.99517304204221,1.14513412292022,111.423071064473
55,0.8,49.9,0.8,6.78,2.74432352239323,0.981782071094917,119.077517881814
55,0.8,49.9,1,6.78,2.53113745929572,0.877201737065364,122.920922353375
55,1,49.9,0.4,6.78,2.99821354615759,1.25096346405753,102.100412914165
55,1,49.9,0.6,6.78,2.72003031659974,1.03248796678767,112.227246588097
55,1,49.9,0.8,6.78,2.49919619679964,0.875310075642749,121.632038640807
55,1,49.9,1,6.78,2.30672411012465,0.783502499780253,125.419432324346
55,1.2,49.9,0.4,6.78,2.71071743030862,1.11432824990795,103.628847904688
55,1.2,49.9,0.6,6.78,2.47486888550295,0.892959742430505,118.067366937577
55,1.2,49.9,0.8,6.78,2.27621458877934,0.772734322524299,125.485215839043
55,1.2,49.9,1,6.78,2.10736309495722,0.677265435160174,132.553140263144
55,0.4,69.9,0.4,6.78,3.86871040684213,2.13646582120971,77.1400355208046
55,0.4,69.9,0.6,6.78,3.45614719158083,1.6030308223257,91.8459307262342
55,0.4,69.9,0.8,6.78,3.15202072956772,1.36477355456793,98.3870703152801
55,0.4,69.9,1,6.78,2.89754287913069,1.2102990634359,101.987450786917
55,0.6,69.9,0.4,6.78,3.47801649200749,1.68784771936248,87.7824985505059
55,0.6,69.9,0.6,6.78,3.13227164376191,1.24761070827147,106.95224063818
55,0.6,69.9,0.8,6.78,2.86581990647692,1.10508149799716,110.475035434569
55,0.6,69.9,1,6.78,2.64330695328957,0.982215666415343,114.643728967795
55,0.8,69.9,0.4,6.78,3.14757221883305,1.3973649545282,95.9567253364939
55,0.8,69.9,0.6,6.78,2.83848171140151,1.07740563285204,112.231927280639
55,0.8,69.9,0.8,6.78,2.6105759551558,0.944171773143449,117.786328091643
55,0.8,69.9,1,6.78,2.40595571810569,0.848758870906691,120.75715306362
55,1,69.9,0.4,6.78,2.84932355382025,1.21296186788689,100.070065102112
55,1,69.9,0.6,6.78,2.58933806923451,0.950053665179473,116.104801682
55,1,69.9,0.8,6.78,2.37714684691983,0.829469065813071,122.08586341989
55,1,69.9,1,6.78,2.20148499935686,0.731488892985421,128.208717737824
55,1.2,69.9,0.4,6.78,2.57935076706144,1.09603330725622,100.252731937084
55,1.2,69.9,0.6,6.78,2.35633023287313,0.866060923537582,115.903692995142
55,1.2,69.9,0.8,6.78,2.17119766248074,0.728954166658041,126.884537874034
55,1.2,69.9,1,6.78,2.00879316156802,0.662430217909499,129.182786507539
55,0.4,89.9,0.4,6.78,3.67697647108098,2.20238410679741,71.1225548185673
55,0.4,89.9,0.6,6.78,3.28907997191556,1.71291985663924,81.7988035825832
55,0.4,89.9,0.8,6.78,2.98566706025508,1.31755496054423,96.5344215426193
55,0.4,89.9,1,6.78,2.75612860242203,1.35498978492279,86.6508882943812
55,0.6,89.9,0.4,6.78,3.25990538215032,1.67598652628048,82.8598293064285
55,0.6,89.9,0.6,6.78,2.97333389270245,1.70701650979395,74.2019847768823
55,0.6,89.9,0.8,6.78,2.7232457715971,1.08016144673438,107.400852316946
55,0.6,89.9,1,6.78,2.50907454671822,0.969061565130169,110.299046479784
55,0.8,89.9,0.4,6.78,2.9620024893341,1.35400482856975,93.191170864879
55,0.8,89.9,0.6,6.78,2.70293133512374,1.09205830162973,105.438386327049
55,0.8,89.9,0.8,6.78,2.47380310541484,1.04212649206181,101.124003798839
55,0.8,89.9,1,6.78,2.29386275256057,0.796833679862113,122.633552560616
55,1,89.9,0.4,6.78,2.68784333395413,1.15792230161414,98.8858372828943
55,1,89.9,0.6,6.78,2.45789335729694,0.9442879732111,110.883809918491
55,1,89.9,0.8,6.78,2.26040556153591,0.785038549149569,122.660560871983
55,1,89.9,1,6.78,2.09290433039457,0.715347185431403,124.635587753562
55,1.2,89.9,0.4,6.78,2.44594686068794,1.03509315458042,100.664686029891
55,1.2,89.9,0.6,6.78,2.22157927665057,0.850733148519134,111.244365302896
55,1.2,89.9,0.8,6.78,2.06335722709973,0.71128734159745,123.577357939777
55,1.2,89.9,1,6.78,1.91238591898527,0.625744858756561,130.193052473405
60,0.4,9.9,0.4,6.78,5.38857812626744,3.29627845511615,69.6401750678797
60,0.4,9.9,0.6,6.78,4.73181834322536,2.58699732270835,77.9186907290095
60,0.4,9.9,0.8,6.78,4.30690165411009,2.09539452967809,87.5605964829092
60,0.4,9.9,1,6.78,3.93799613282133,1.85856419371471,90.2624841157022
60,0.6,9.9,0.4,6.78,4.86174342130719,2.74981754036376,75.3178162263796
60,0.6,9.9,0.6,6.78,4.29999936393737,2.02194749604466,90.5958031588778
60,0.6,9.9,0.8,6.78,3.92597127157263,1.67757934467599,99.6950531718618
60,0.6,9.9,1,6.78,3.60265338915435,1.4913835906786,102.906470411267
60,0.8,9.9,0.4,6.78,4.39749755364813,2.19196324853092,85.4637412391823
60,0.8,9.9,0.6,6.78,3.93331665671106,1.70943336600055,98.0203608285966
60,0.8,9.9,0.8,6.78,3.58388618233213,1.45442640581556,104.97164916204
60,0.8,9.9,1,6.78,3.29664811839558,1.26143058824281,111.331688978815
60,1,9.9,0.4,6.78,3.98063297334263,1.95319976714943,86.8190510347268
60,1,9.9,0.6,6.78,3.58210180217353,1.46422641526495,104.217163564395
60,1,9.9,0.8,6.78,3.27440503941913,1.23417106239181,113.022940729421
60,1,9.9,1,6.78,3.01771991329547,1.07781087788751,119.274039655534
60,1.2,9.9,0.4,6.78,3.61748948806077,1.65277680866504,93.240078332316
60,1.2,9.9,0.6,6.78,3.26543600792817,1.30354961353523,106.714436244851
60,1.2,9.9,0.8,6.78,2.99383755734245,1.08703047150752,117.326489418683
60,1.2,9.9,1,6.78,2.76615630896765,0.940747239104484,125.260265305817
60,0.8,10,0.5,6.78,4.1455267955266,1.91600782429719,92.1705142610807
60,0.4,29.9,0.4,6.78,5.05034727890202,2.81160726087992,76.5202092077256
60,0.4,29.9,0.6,6.78,4.4864532590489,2.19617658688794,87.0252846458776
60,0.4,29.9,0.8,6.78,4.07595022052776,1.86986471521618,92.8599075844811
60,0.4,29.9,1,6.78,3.74957496218276,1.65334255823485,96.6114850367716
60,0.6,29.9,0.4,6.78,4.57803737629656,2.29810916732011,84.862972761829
60,0.6,29.9,0.6,6.78,4.08659380795314,1.75649601481364,99.1114582487377
60,0.6,29.9,0.8,6.78,3.72864224550753,1.50301836492074,105.680775350536
60,0.6,29.9,1,6.78,3.43224709945327,1.31671107936646,111.044644730655
60,0.8,29.9,0.4,6.78,4.14415789817577,1.97538578539029,89.3704474220726
60,0.8,29.9,0.6,6.78,3.72767426933864,1.53438828960756,103.49330183577
60,0.8,29.9,0.8,6.78,3.40922655725778,1.28786320790303,112.770547458519
60,0.8,29.9,1,6.78,3.14608236516612,1.0969199043855,122.181297686237
60,1,29.9,0.4,6.78,3.76532501255557,1.64767781928697,97.3508473785768
60,1,29.9,0.6,6.78,3.40611201053258,1.32478391624056,109.527567136718
60,1,29.9,0.8,6.78,3.11808013085454,1.10140619987489,120.600558005203
60,1,29.9,1,6.78,2.88372764761563,0.979331073361101,125.439486909609
60,1.2,29.9,0.4,6.78,3.42967455767614,1.52965375947924,95.5145063680982
60,1.2,29.9,0.6,6.78,3.10681253565249,1.17829059200905,112.323906919081
60,1.2,29.9,0.8,6.78,2.85628068199935,0.987449996212148,123.224008494444
60,1.2,29.9,1,6.78,2.64520951505516,0.845366900319566,133.298235038746
60,0.4,49.9,0.4,6.78,4.74796964005264,2.60132052460789,77.7541589273369
60,0.4,49.9,0.6,6.78,4.24420485847531,2.00626822024488,90.1191125862136
60,0.4,49.9,0.8,6.78,3.86424232619901,1.67775742931616,98.1171093278743
60,0.4,49.9,1,6.78,3.56146043156518,1.52436979812563,99.5284751037964
60,0.6,49.9,0.4,6.78,4.32156765331539,2.12529824590966,86.6225560356281
60,0.6,49.9,0.6,6.78,3.87247806990154,1.62115402510057,101.759332682513
60,0.6,49.9,0.8,6.78,3.53685217912569,1.38187624444456,109.032838969875
60,0.6,49.9,1,6.78,3.25299906010222,1.21562886088,113.996757277457
60,0.8,49.9,0.4,6.78,3.91319739438827,1.77873976510567,93.7192714279598
60,0.8,49.9,0.6,6.78,3.53489445151522,1.35201319603729,111.379453461741
60,0.8,49.9,0.8,6.78,3.23933177331106,1.16400052081295,118.552800757311
60,0.8,49.9,1,6.78,2.99046315075622,1.04114968104194,122.35869800897
60,1,49.9,0.4,6.78,3.57986765259707,1.5506724947727,98.345943173161
60,1,49.9,0.6,6.78,3.22916967947988,1.21626825532921,113.102200984158
60,1,49.9,0.8,6.78,2.96902217404066,1.01905685903717,124.115090097842
60,1,49.9,1,6.78,2.74638020921003,0.912233226869308,128.252056088027
60,1.2,49.9,0.4,6.78,3.24534897892563,1.35815842818,101.793613980677
60,1.2,49.9,0.6,6.78,2.95187644262015,1.06433842820516,118.14844080166
60,1.2,49.9,0.8,6.78,2.7208630322908,0.911441000436958,127.170881360155
60,1.2,49.9,1,6.78,2.52087602892767,0.809575510709471,132.648910809304
60,0.4,69.9,0.4,6.78,4.58859516496018,2.6432081365269,73.9533655059503
60,0.4,69.9,0.6,6.78,4.05108271900038,1.9400210574587,88.9557917486771
60,0.4,69.9,0.8,6.78,3.67423898656875,1.62978621127619,96.0387113683815
60,0.4,69.9,1,6.78,3.38778242352689,1.41954142121153,101.666296475077
60,0.6,69.9,0.4,6.78,4.08316922574026,1.98592504398332,87.587895008114
60,0.6,69.9,0.6,6.78,3.67229350339178,1.53890021642636,101.656811982199
60,0.6,69.9,0.8,6.78,3.35915608987674,1.31757917334091,108.608302387437
60,0.6,69.9,1,6.78,3.1022295216563,1.11170167183832,118.876286461152
60,0.8,69.9,0.4,6.78,3.70936971164333,1.64985213552485,95.7777566216569
60,0.8,69.9,0.6,6.78,3.3552485427018,1.3338472284956,107.158880513843
60,0.8,69.9,0.8,6.78,3.07772915232543,1.11510297406586,117.577706996754
60,0.8,69.9,1,6.78,2.84425742355636,0.985109161874337,122.99688262402
60,1,69.9,0.4,6.78,3.36208519003672,1.46070546167664,98.0518117385698
60,1,69.9,0.6,6.78,3.06826803106508,1.1406381812782,114.592172320574
60,1,69.9,0.8,6.78,2.82113120735961,0.977824860389614,122.905628703992
60,1,69.9,1,6.78,2.61416248899947,0.857574753460894,129.858431729342
60,1.2,69.9,0.4,6.78,3.07797779823021,1.31093592169946,100.021550176599
60,1.2,69.9,0.6,6.78,2.80653317030621,1.02642150580845,116.48070722051
60,1.2,69.9,0.8,6.78,2.58773882230952,0.873442953997022,126.210491441065
60,1.2,69.9,1,6.78,2.40121867752338,0.763289729606337,134.014520317561
