N,a [mm],d [mm],my_theta [deg],p [mm],Freq [MHz],"im(Z(1,1))/(2*pi*Freq)*1e6 []","re(Z(1,1)) []","im(Z(1,1))/re(Z(1,1)) []"
7,70,0.4,9.9,0.4,6.78,11.76916536,12.09149343,41.46439022
7,70,0.4,9.9,0.8,6.78,8.080333663,5.136675357,67.01264162
7,70,0.4,9.9,1,6.78,7.147095746,4.061455455,74.96481405
7,70,0.6,9.9,0.4,6.78,10.52120617,9.959576991,45.00224709
7,70,0.6,9.9,0.6,6.78,8.431327372,5.816909854,61.74661884
7,70,0.6,9.9,0.8,6.78,7.278620146,4.248660549,72.98045779
7,70,0.6,9.9,1,6.78,6.470997294,3.286051045,83.88928157
7,70,0.8,9.9,0.4,6.78,9.263116421,8.127606504,48.55165242
7,70,0.8,9.9,0.6,6.78,7.612893929,4.945224658,65.5802873
7,70,0.8,9.9,0.8,6.78,6.572104627,3.465801702,80.78120372
7,70,0.8,9.9,1,6.78,5.895864111,2.701336455,92.9776035
7,70,1,9.9,0.4,6.78,8.307924006,6.614147753,53.50916639
7,70,1,9.9,0.6,6.78,6.853811908,4.091887487,71.35395667
7,70,1,9.9,0.8,6.78,5.983782095,2.82064274,90.37269839
7,70,1,9.9,1,6.78,5.356614974,2.304330776,99.0273536
7,70,0.4,29.9,0.4,6.78,10.60354042,9.328211097,48.42415966
7,70,0.4,29.9,0.6,6.78,8.665950378,5.783259309,63.83415217
7,70,0.4,29.9,0.8,6.78,7.480876753,4.267698384,74.6738157
7,70,0.4,29.9,1,6.78,6.635899041,3.485829296,81.09670645
7,70,0.6,29.9,0.4,6.78,9.512876031,7.865383213,51.52304389
7,70,0.6,29.9,0.6,6.78,7.823877507,4.7235191,70.56119525
7,70,0.6,29.9,0.8,6.78,6.827507378,3.574903746,81.35933448
7,70,0.6,29.9,1,6.78,6.087129351,2.747498384,94.38101578
7,70,0.8,29.9,0.4,6.78,8.506078155,6.419197886,56.44924881
7,70,0.8,29.9,0.6,6.78,7.068678694,3.97235736,75.80528626
7,70,0.8,29.9,0.8,6.78,6.16799215,2.974270233,88.34316412
7,70,0.8,29.9,1,6.78,5.55141212,2.352300781,100.5356705
7,70,1,29.9,0.4,6.78,7.526537848,5.297138221,60.52900108
7,70,1,29.9,0.6,6.78,6.344367685,3.427530739,78.85269631
7,70,1,29.9,0.8,6.78,5.612165992,2.479189041,96.43405445
7,70,1,29.9,1,6.78,5.050355762,1.986997181,108.2765186
7,70,0.4,49.9,0.4,6.78,1.191010018,2.564261388,19.78621318
7,70,0.4,49.9,0.6,6.78,8.070677308,5.11688127,67.19147972
7,70,0.4,49.9,0.8,6.78,7.018313723,3.785251944,78.98553218
7,70,0.4,49.9,1,6.78,6.2900073,3.116991775,85.96567061
7,70,0.6,49.9,0.4,6.78,8.838863462,6.819582688,55.21386993
7,70,0.6,49.9,0.6,6.78,7.279016625,4.1368135,74.95771367
7,70,0.6,49.9,0.8,6.78,6.38640905,3.089669572,88.05504797
7,70,0.6,49.9,1,6.78,5.72522267,2.496521921,97.69370059
7,70,0.8,49.9,0.4,6.78,7.765215075,5.562232638,59.47218601
7,70,0.8,49.9,0.6,6.78,6.591123518,3.509932345,79.99636758
7,70,0.8,49.9,0.8,6.78,5.809166053,2.611600379,94.75816241
7,70,0.8,49.9,1,6.78,5.234776273,2.086755745,106.8651426
7,70,1,49.9,0.4,6.78,7.047134887,4.676000224,64.20186191
7,70,1,49.9,0.6,6.78,5.933602123,2.969790672,85.11422417
7,70,1,49.9,0.8,6.78,5.26391753,2.221625755,100.9363828
7,70,1,49.9,1,6.78,4.765263084,1.619322299,125.3612022
7,70,0.4,69.9,0.4,6.78,9.715273022,9.015949194,45.90427327
7,70,0.4,69.9,0.6,6.78,7.86316478,5.32913272,62.85653009
7,70,0.4,69.9,0.8,6.78,6.623228473,3.574521703,78.93350003
7,70,0.4,69.9,1,6.78,5.924144166,2.892176026,87.25904572
7,70,0.6,69.9,0.4,6.78,8.081525474,5.970290446,57.66435637
7,70,0.6,69.9,0.6,6.78,6.888698573,3.945523179,74.37759734
7,70,0.6,69.9,0.8,6.78,6.01425303,2.817929439,90.92035938
7,70,0.6,69.9,1,6.78,5.420619791,2.343547217,98.53370216
7,70,0.8,69.9,0.4,6.78,7.206809332,4.81339491,63.78243573
7,70,0.8,69.9,0.6,6.78,6.12580415,3.152143074,82.78787748
7,70,0.8,69.9,0.8,6.78,5.486567874,2.393037556,97.66991371
7,70,0.8,69.9,1,6.78,4.933053634,1.930333187,108.8662146
7,70,1,69.9,0.4,6.78,6.471323821,4.078827335,67.58765417
7,70,1,69.9,0.6,6.78,5.571331344,2.729438636,86.95513133
7,70,1,69.9,0.8,6.78,4.964487243,2.032962809,104.0290249
7,70,1,69.9,1,6.78,4.503408684,1.674749018,114.5516084
7,70,0.4,89.9,0.4,6.78,8.728021556,8.112637683,45.83141775
7,70,0.4,89.9,0.6,6.78,8.502188052,7.861742131,46.07034602
7,70,0.4,89.9,0.8,6.78,0.293595762,0.657548372,19.02092519
7,70,0.4,89.9,1,6.78,5.656046366,3.147762822,76.5456511
7,70,0.6,89.9,0.4,6.78,7.074144569,5.675470477,53.09842317
7,70,0.6,89.9,0.6,6.78,6.444799092,3.730755784,73.59056285
7,70,0.6,89.9,0.8,6.78,5.663862732,3.157569398,76.41337419
7,70,0.6,89.9,1,6.78,5.098401604,2.811762338,77.24404264
7,70,0.8,89.9,0.4,6.78,0.954641596,1.874788817,21.69189841
7,70,0.8,89.9,0.6,6.78,5.867876327,3.046135849,82.06183922
7,70,0.8,89.9,0.8,6.78,5.151210736,2.331573387,94.11737153
7,70,0.8,89.9,1,6.78,4.651478974,1.818667616,108.9550315
7,70,1,89.9,0.4,6.78,6.100520679,3.700641547,70.22624472
7,70,1,89.9,0.6,6.78,5.276769124,2.513093269,89.44767325
7,70,1,89.9,0.8,6.78,4.702679455,2.167900504,92.40928144
7,70,1,89.9,1,6.78,4.265325692,1.584666887,114.6631261
7,75,0.4,9.9,0.4,6.78,14.7273568,18.63233982,33.67184972
7,75,0.4,9.9,0.6,6.78,11.20504482,9.585506129,49.79756546
7,75,0.4,9.9,0.8,6.78,9.609926587,6.87821334,59.51877582
7,75,0.4,9.9,1,6.78,8.401606047,5.252301764,68.14315004
7,75,0.6,9.9,0.4,6.78,13.229921,15.37130701,36.66536532
7,75,0.6,9.9,0.6,6.78,10.26681001,8.189456136,53.40599691
7,75,0.6,9.9,0.8,6.78,8.714081973,5.680419024,65.35078819
7,75,0.6,9.9,1,6.78,7.609550039,4.166724427,77.79895449
7,75,0.8,9.9,0.4,6.78,11.71401041,12.20012616,40.90259351
7,75,0.8,9.9,0.6,6.78,9.250318477,6.895430713,57.14850168
7,75,0.8,9.9,0.8,6.78,7.919691223,4.735874299,71.23897218
7,75,0.8,9.9,1,6.78,6.987931031,3.591293415,82.89098166
7,75,1,9.9,0.4,6.78,10.48314088,10.10241617,44.20544114
7,75,1,9.9,0.6,6.78,8.36983459,5.66940998,62.89101061
7,75,1,9.9,0.8,6.78,7.123707119,3.905126432,77.71064594
7,75,1,9.9,1,6.78,6.335596062,2.961029715,91.14949706
7,75,0.4,29.9,0.4,6.78,12.95702942,13.36931846,41.28627857
7,75,0.4,29.9,0.6,6.78,10.29110068,7.965473872,55.03763603
7,75,0.4,29.9,0.8,6.78,8.82195044,5.590844029,67.2197355
7,75,0.4,29.9,1,6.78,7.803939189,4.335077805,76.68784648
7,75,0.6,29.9,0.4,6.78,11.57620409,11.24304039,43.86235709
7,75,0.6,29.9,0.6,6.78,9.421530053,6.643694375,60.41174135
7,75,0.6,29.9,0.8,6.78,8.078568522,4.65737088,73.89297496
7,75,0.6,29.9,1,6.78,7.119357573,3.61479922,83.90081672
7,75,0.8,29.9,0.4,6.78,10.36568078,9.077799585,48.64372248
7,75,0.8,29.9,0.6,6.78,8.420471826,5.498657153,65.23630395
7,75,0.8,29.9,0.8,6.78,7.340581246,3.838934528,81.45716793
7,75,0.8,29.9,1,6.78,6.523671618,3.004709185,92.49094346
7,75,1,29.9,0.4,6.78,9.384583705,7.860688065,50.85855444
7,75,1,29.9,0.6,6.78,7.67387974,4.665268615,70.0725459
7,75,1,29.9,0.8,6.78,6.656351475,3.218767185,88.09601081
7,75,1,29.9,1,6.78,5.959884886,2.551356877,99.51217601
7,75,0.4,49.9,0.4,6.78,12.94566567,15.08024034,36.5700611
7,75,0.4,49.9,0.6,6.78,9.461561526,6.844705139,58.88675679
7,75,0.4,49.9,0.8,6.78,8.199286293,4.88345343,71.52511465
7,75,0.4,49.9,1,6.78,7.278245856,3.873339245,80.04804834
7,75,0.6,49.9,0.4,6.78,10.47966204,9.55949295,46.70054859
7,75,0.6,49.9,0.6,6.78,8.585854855,5.612711547,65.16589757
7,75,0.6,49.9,0.8,6.78,7.478199429,4.004900868,79.54535683
7,75,0.6,49.9,1,6.78,6.663139775,3.101784493,91.51175104
7,75,0.8,49.9,0.4,6.78,9.651506821,8.191565762,50.19237684
7,75,0.8,49.9,0.6,6.78,7.846286041,4.74081245,70.50516352
7,75,0.8,49.9,0.8,6.78,6.840793729,3.344284786,87.1390467
7,75,0.8,49.9,1,6.78,6.104096028,2.64672309,98.24770475
7,75,1,49.9,0.4,6.78,8.597980569,6.777912011,54.0393473
7,75,1,49.9,0.6,6.78,7.10745267,3.918240172,77.27383844
7,75,1,49.9,0.8,6.78,6.217640287,2.887696383,91.72413529
7,75,1,49.9,1,6.78,5.583925416,2.253595276,105.553648
7,75,0.4,69.9,0.4,6.78,11.85839901,12.61871865,40.03320535
7,75,0.4,69.9,0.6,6.78,9.580666192,7.687162737,53.09323597
7,75,0.4,69.9,0.8,6.78,7.840889189,4.744458247,70.40252726
7,75,0.4,69.9,1,6.78,6.89802751,3.596188565,81.71316427
7,75,0.6,69.9,0.4,6.78,10.02488853,8.691959641,49.13278854
7,75,0.6,69.9,0.6,6.78,8.158596889,5.245393676,66.25931616
7,75,0.6,69.9,0.8,6.78,7.035815919,3.699670346,81.01417279
7,75,0.6,69.9,1,6.78,6.292249065,2.926975231,91.57911026
7,75,0.8,69.9,0.4,6.78,9.02538963,7.234264639,53.14729067
7,75,0.8,69.9,0.6,6.78,7.377400413,4.375622958,71.8245685
7,75,0.8,69.9,0.8,6.78,6.405581534,3.031206011,90.02283222
7,75,0.8,69.9,1,6.78,5.757022854,2.441284199,100.4590751
7,75,1,69.9,0.4,6.78,7.852286037,5.650489004,59.19971821
7,75,1,69.9,0.6,6.78,6.643034881,3.557537793,79.54750684
7,75,1,69.9,0.8,6.78,5.820015502,2.592368131,95.63944116
7,75,1,69.9,1,6.78,5.258087354,2.064342403,108.5064677
7,75,0.4,89.9,0.4,6.78,10.8574584,12.13755755,38.10714689
7,75,0.4,89.9,0.6,6.78,1.753357716,4.690270194,15.92510223
7,75,0.4,89.9,0.8,6.78,7.580438431,4.997085999,64.62299224
7,75,0.4,89.9,1,6.78,6.563001444,3.530207076,79.19757447
7,75,0.6,89.9,0.4,6.78,8.440216434,6.394491823,56.22857915
7,75,0.6,89.9,0.6,6.78,7.473695712,4.867782009,65.40543715
7,75,0.6,89.9,0.8,6.78,6.67660771,3.611127206,78.76306984
7,75,0.6,89.9,1,6.78,5.958600121,2.743248612,92.53129394
7,75,0.8,89.9,0.4,6.78,8.289454985,6.442626828,54.81161052
7,75,0.8,89.9,0.6,6.78,6.92013094,3.96473342,74.35494944
7,75,0.8,89.9,0.8,6.78,6.030623769,2.880561654,89.18557614
7,75,0.8,89.9,1,6.78,5.42370931,2.452960077,94.19231855
7,75,1,89.9,0.4,6.78,7.176215208,4.907107368,62.29876768
7,75,1,89.9,0.6,6.78,6.301269178,3.464438908,77.4826895
7,75,1,89.9,0.8,6.78,5.4299491,2.551416577,90.66171869
7,75,1,89.9,1,6.78,4.939495665,2.027738481,103.7720098
7,80,0.4,9.9,0.4,6.78,18.29045563,31.56598947,24.68395121
7,80,0.4,9.9,0.6,6.78,13.83666142,14.64434841,40.25045772
7,80,0.4,9.9,0.8,6.78,11.41747677,9.377133212,51.86920756
7,80,0.4,9.9,1,6.78,9.769115036,6.718708667,61.94110889
7,80,0.6,9.9,0.4,6.78,17.3675849,26.09259466,28.35513538
7,80,0.6,9.9,0.6,6.78,12.67315653,12.17774917,44.33302207
7,80,0.6,9.9,0.8,6.78,10.38231344,7.732550681,57.1980105
7,80,0.6,9.9,1,6.78,9.028262949,5.658739813,67.96636383
7,80,0.8,9.9,0.4,6.78,15.28597102,20.52743513,31.72253651
7,80,0.8,9.9,0.6,6.78,11.33397483,9.982282798,48.368424
7,80,0.8,9.9,0.8,6.78,9.437501901,6.423243353,62.59105015
7,80,0.8,9.9,1,6.78,8.254605138,4.709047329,74.67458373
7,80,1,9.9,0.4,6.78,13.47764023,16.75537464,34.26646298
7,80,1,9.9,0.6,6.78,10.20118967,8.134395167,53.42384209
7,80,1,9.9,0.8,6.78,8.588761099,5.344184508,68.4634281
7,80,1,9.9,1,6.78,7.54794748,4.026978495,79.84709523
7,80,0.4,29.9,0.4,6.78,16.60309022,22.0353512,32.09803995
7,80,0.4,29.9,0.6,6.78,12.3927202,11.39764592,46.31919955
7,80,0.4,29.9,0.8,6.78,10.36055885,7.44021639,59.32082434
7,80,0.4,29.9,1,6.78,9.087669131,5.59235472,69.22570035
7,80,0.6,29.9,0.4,6.78,14.84528443,18.13396428,34.87428636
7,80,0.6,29.9,0.6,6.78,11.26813758,9.367412821,51.24388444
7,80,0.6,29.9,0.8,6.78,9.538294891,6.184250189,65.70421885
7,80,0.6,29.9,1,6.78,8.360042211,4.646303137,76.64970568
7,80,0.8,29.9,0.4,6.78,13.28571604,15.21886026,37.18882002
7,80,0.8,29.9,0.6,6.78,10.30955711,7.926463775,55.40769606
7,80,0.8,29.9,0.8,6.78,8.712557549,5.231959917,70.93993951
7,80,0.8,29.9,1,6.78,7.668228291,3.954796792,82.60007142
7,80,1,29.9,0.4,6.78,11.8534952,12.31625649,40.99937775
7,80,1,29.9,0.6,6.78,9.228836763,6.479991894,60.67112725
7,80,1,29.9,0.8,6.78,7.928231394,4.490624052,75.21062214
7,80,1,29.9,1,6.78,6.974599757,3.269811602,90.86698579
7,80,1.2,30,1,6.78,6.403232303,2.890103518,94.3833573
7,80,0.4,49.9,0.4,6.78,13.31673222,21.68273812,26.16333514
7,80,0.4,49.9,0.6,6.78,11.52321267,9.700256492,50.60575652
7,80,0.4,49.9,0.8,6.78,9.652951001,6.50227799,63.2417867
7,80,0.4,49.9,1,6.78,8.493902519,4.91499289,73.61968261
7,80,0.6,49.9,0.4,6.78,13.62859727,15.69814227,36.98387901
7,80,0.6,49.9,0.6,6.78,10.20333335,7.63881392,56.901761
7,80,0.6,49.9,0.8,6.78,8.714203547,5.208346459,71.27502797
7,80,0.6,49.9,1,6.78,7.774867599,3.915903622,84.58056265
7,80,0.8,49.9,0.4,6.78,12.11010385,12.70868851,40.59351835
7,80,0.8,49.9,0.6,6.78,9.426260808,6.633460718,60.53532137
7,80,0.8,49.9,0.8,6.78,8.068143155,4.568721241,75.22955574
7,80,0.8,49.9,1,6.78,7.127799872,3.470644753,87.48929101
7,80,1,49.9,0.4,6.78,10.65048817,9.98497633,45.43934231
7,80,1,49.9,0.6,6.78,8.487836461,5.386858558,67.12294349
7,80,1,49.9,0.8,6.78,7.333652343,3.826359753,81.64772354
7,80,1,49.9,1,6.78,6.54327345,2.887686993,96.52826847
7,80,0.4,69.9,0.4,6.78,16.07430922,23.1667146,29.5581625
7,80,0.4,69.9,0.6,6.78,12.39823362,13.38208258,39.46805022
7,80,0.4,69.9,0.8,6.78,9.266650969,6.31278474,62.53330566
7,80,0.4,69.9,1,6.78,8.026672911,4.600783301,74.32130892
7,80,0.6,69.9,0.4,6.78,12.53542509,13.54475817,39.4255148
7,80,0.6,69.9,0.6,6.78,9.985417633,7.754744499,54.85400004
7,80,0.6,69.9,0.8,6.78,8.290572734,4.846972223,72.86577109
7,80,0.6,69.9,1,6.78,7.301855939,3.661775359,84.94760222
7,80,0.8,69.9,0.4,6.78,10.87482342,10.20534817,45.39457454
7,80,0.8,69.9,0.6,6.78,8.91002822,6.139932623,61.8194357
7,80,0.8,69.9,0.8,6.78,7.449796838,3.971630469,79.90706105
7,80,0.8,69.9,1,6.78,6.699038578,3.080236032,92.64842573
7,80,1,69.9,0.4,6.78,9.830892857,8.611217663,48.63377243
7,80,1,69.9,0.6,6.78,8.001783121,5.0355782,67.6935038
7,80,1,69.9,0.8,6.78,6.874570662,3.414597323,85.76609704
7,80,1,69.9,1,6.78,6.139338531,2.59878233,100.6378242
7,80,0.4,89.9,0.4,6.78,13.72926657,20.1084871,29.08556488
7,80,0.4,89.9,0.6,6.78,11.35241896,14.6834614,32.93589932
7,80,0.4,89.9,0.8,6.78,9.29372909,8.834519364,44.81430277
7,80,0.4,89.9,1,6.78,7.518156565,4.767538621,67.17794399
7,80,0.6,89.9,0.4,6.78,10.08231596,8.622917664,49.80989498
7,80,0.6,89.9,0.6,6.78,8.95958963,6.627536669,57.58979616
7,80,0.6,89.9,0.8,6.78,8.041015082,5.217114176,65.65837009
7,80,0.6,89.9,1,6.78,6.969199335,3.657545967,81.17132884
7,80,0.8,89.9,0.4,6.78,10.12123539,9.435482089,45.69608495
7,80,0.8,89.9,0.6,6.78,8.156451355,5.224939107,66.50121486
7,80,0.8,89.9,0.8,6.78,7.096236224,3.789827968,79.766058
7,80,0.8,89.9,1,6.78,6.298434319,3.031217991,88.51665569
7,80,1,89.9,0.4,6.78,8.855108819,7.411031755,50.90082139
7,80,1,89.9,0.6,6.78,7.371102673,4.433849345,70.82084274
7,80,1,89.9,0.8,6.78,6.376122258,3.041561149,89.30373969
7,80,1,89.9,1,6.78,5.787427361,2.613991464,94.31721106
7,85,0.4,9.9,0.4,6.78,23.2365384,63.1497883,15.67505575
7,85,0.4,9.9,0.6,6.78,14.25808242,21.13626604,28.73706541
7,85,0.4,9.9,0.8,6.78,13.7444368,13.29111514,44.05295959
7,85,0.4,9.9,1,6.78,11.68862665,9.207176275,54.08123382
7,85,0.6,9.9,0.4,6.78,19.55840013,44.38522136,18.77173864
7,85,0.6,9.9,0.6,6.78,15.70204275,18.35636789,36.44005004
7,85,0.6,9.9,0.8,6.78,12.6189607,11.25187891,47.77581455
7,85,0.6,9.9,1,6.78,10.71895074,7.585155144,60.20012169
7,85,0.8,9.9,0.4,6.78,21.06535483,42.70478552,21.0136646
7,85,0.8,9.9,0.6,6.78,14.25775192,15.53706476,39.09233755
7,85,0.8,9.9,0.8,6.78,11.51151511,9.308948225,52.67947464
7,85,0.8,9.9,1,6.78,9.764153133,6.437557523,64.61346352
7,85,1,9.9,0.4,6.78,14.58606227,26.1078053,23.80001662
7,85,1,9.9,0.6,6.78,12.73229089,12.8350654,42.25888447
7,85,1,9.9,0.8,6.78,10.30873685,7.505294303,58.51231607
7,85,1,9.9,1,6.78,8.917732469,5.346427814,71.05592447
7,85,0.4,29.9,0.4,6.78,17.53067432,33.99644295,21.96720003
7,85,0.4,29.9,0.6,6.78,14.55035475,16.3565129,37.89591726
7,85,0.4,29.9,0.8,6.78,12.29483908,10.25891117,51.05416081
7,85,0.4,29.9,1,6.78,10.59071331,7.30306769,61.77737464
7,85,0.6,29.9,0.4,6.78,19.62131297,33.85913165,24.68663018
7,85,0.6,29.9,0.6,6.78,13.86046724,13.8074777,42.7634842
7,85,0.6,29.9,0.8,6.78,11.3461392,8.578871155,56.34138576
7,85,0.6,29.9,1,6.78,9.796955759,6.157637433,67.77766382
7,85,0.8,29.9,0.4,6.78,13.81148963,22.38475152,26.28438415
7,85,0.8,29.9,0.6,6.78,12.62438128,11.69878887,45.97045071
7,85,0.8,29.9,0.8,6.78,10.36231024,7.31582217,60.33968136
7,85,0.8,29.9,1,6.78,8.948470851,5.267798012,72.36511822
7,85,1,29.9,0.4,6.78,15.29874535,20.76603181,31.38425785
7,85,1,29.9,0.6,6.78,11.24910518,9.44446103,50.73998806
7,85,1,29.9,0.8,6.78,9.395486399,5.993340111,66.78207463
7,85,1,29.9,1,6.78,8.205337136,4.344915386,80.4497444
7,85,0.4,49.9,0.4,6.78,20.74844843,51.77837515,17.07052076
7,85,0.4,49.9,0.6,6.78,13.84389515,14.22515571,41.45823745
7,85,0.4,49.9,0.8,6.78,11.34521372,8.740496081,55.29503807
7,85,0.4,49.9,1,6.78,9.810131076,6.327686839,66.04491641
7,85,0.6,49.9,0.4,6.78,13.92275781,22.64024,26.19713537
7,85,0.6,49.9,0.6,6.78,12.42433723,11.24997739,47.04691423
7,85,0.6,49.9,0.8,6.78,10.43202544,7.233594912,61.4361533
7,85,0.6,49.9,1,6.78,9.051600671,5.180348593,74.43478926
7,85,0.8,49.9,0.4,6.78,15.2830043,20.05711469,32.46009897
7,85,0.8,49.9,0.6,6.78,11.36720785,9.345559251,51.81530611
7,85,0.8,49.9,0.8,6.78,9.51160267,6.146121534,65.92681858
7,85,0.8,49.9,1,6.78,8.264643128,4.405032546,79.92534986
7,85,1,49.9,0.4,6.78,13.64295406,16.19364448,35.8899934
7,85,1,49.9,0.6,6.78,10.23825679,7.754993231,56.24114546
7,85,1,49.9,0.8,6.78,8.647334535,5.039067999,73.10407797
7,85,1,49.9,1,6.78,7.612804764,3.755235872,86.3608749
7,85,0.4,69.9,0.4,6.78,21.4250316,41.312201,22.09289862
7,85,0.4,69.9,0.6,6.78,16.23867934,34.46452661,20.07187532
7,85,0.4,69.9,0.8,6.78,10.92372034,8.732529957,53.28930438
7,85,0.4,69.9,1,6.78,9.305046534,5.915689205,67.0073993
7,85,0.6,69.9,0.4,6.78,16.64393624,24.50234547,28.93729601
7,85,0.6,69.9,0.6,6.78,13.36900113,14.77426979,38.54805739
7,85,0.6,69.9,0.8,6.78,9.858210657,6.693028554,62.74584591
7,85,0.6,69.9,1,6.78,8.520742207,4.753334187,76.3639948
7,85,0.8,69.9,0.4,6.78,13.52649849,16.04458467,35.91422268
7,85,0.8,69.9,0.6,6.78,10.62866736,8.651918966,52.33303651
7,85,0.8,69.9,0.8,6.78,8.80567533,5.210684188,71.99087944
7,85,0.8,69.9,1,6.78,7.731812648,3.856402542,85.40996103
7,85,1,69.9,0.4,6.78,12.11468617,13.00145616,39.69444507
7,85,1,69.9,0.6,6.78,9.514032452,6.92720701,58.50810398
7,85,1,69.9,0.8,6.78,8.062111583,4.52681325,75.86924959
7,85,1,69.9,1,6.78,7.125771961,3.314844672,91.57528928
7,85,0.4,89.9,0.4,6.78,17.18377514,32.53598356,22.49905117
7,85,0.4,89.9,0.6,6.78,13.94105398,22.47903335,26.41967916
7,85,0.4,89.9,0.8,6.78,12.52245588,17.88931505,29.81984351
7,85,0.4,89.9,1,6.78,9.033071143,6.163899504,62.42944061
7,85,0.6,89.9,0.4,6.78,12.35687924,12.6791861,41.51709794
7,85,0.6,89.9,0.6,6.78,10.15210948,8.117762441,53.27574317
7,85,0.6,89.9,0.8,6.78,9.768609247,7.559954531,55.04566421
7,85,0.6,89.9,1,6.78,8.141004973,4.932224836,70.31447144
7,85,0.8,89.9,0.4,6.78,12.9326373,15.69511543,35.10202295
7,85,0.8,89.9,0.6,6.78,9.732624159,7.487470653,55.37380688
7,85,0.8,89.9,0.8,6.78,8.380608735,5.253848861,67.95283063
7,85,0.8,89.9,1,6.78,7.236072764,4.07439292,75.65708061
7,85,1,89.9,0.4,6.78,11.04626983,10.92695562,43.06515658
7,85,1,89.9,0.6,6.78,8.813765525,6.288942618,59.70262447
7,85,1,89.9,0.8,6.78,7.582332838,4.450236609,72.58206245
7,85,1,89.9,1,6.78,6.659256882,3.264468913,86.90060364
7,90,0.4,9.9,0.4,6.78,32.95217313,121.1731316,11.58476667
7,90,0.4,9.9,0.6,6.78,16.65603468,28.41342181,24.97224804
7,90,0.4,9.9,0.8,6.78,16.59821341,19.18827949,36.84977757
7,90,0.4,9.9,1,6.78,13.64429964,12.50669994,46.47485894
7,90,0.6,9.9,0.4,6.78,25.48303847,81.33593208,13.346836
7,90,0.6,9.9,0.6,6.78,15.02705064,23.17792465,27.61905186
7,90,0.6,9.9,0.8,6.78,15.37755362,16.26133214,40.28475178
7,90,0.6,9.9,1,6.78,12.72993776,10.59006126,51.20794766
7,90,0.8,9.9,0.4,6.78,21.76713266,56.23907211,16.48817696
7,90,0.8,9.9,0.6,6.78,18.28916493,25.73097914,30.27939029
7,90,0.8,9.9,0.8,6.78,13.94666674,13.67321175,43.45196753
7,90,0.8,9.9,1,6.78,11.68747196,8.788418631,56.65254285
7,90,1,9.9,0.4,6.78,18.81154647,47.58920288,16.83936194
7,90,1,9.9,0.6,6.78,16.17695505,20.44538011,33.70630542
7,90,1,9.9,0.8,6.78,12.56113375,10.94895171,48.87264705
7,90,1,9.9,1,6.78,10.64758066,7.664655225,59.17903471
7,90,0.4,29.9,0.4,6.78,24.79789168,71.5936715,14.7553558
7,90,0.4,29.9,0.6,6.78,17.94516618,24.59945657,31.07645944
7,90,0.4,29.9,0.8,6.78,14.80093388,14.56119728,43.30136578
7,90,0.4,29.9,1,6.78,12.36538142,9.767466219,53.93058875
7,90,0.6,29.9,0.4,6.78,27.45895663,63.69599469,18.36459983
7,90,0.6,29.9,0.6,6.78,17.26313265,21.463519,34.26322535
7,90,0.6,29.9,0.8,6.78,13.58887787,12.19280054,47.47770181
7,90,0.6,29.9,1,6.78,11.50432797,8.246323953,59.4306424
7,90,0.8,29.9,0.4,6.78,16.8708297,34.59833121,20.77259969
7,90,0.8,29.9,0.6,6.78,15.33092189,17.5855461,37.13829603
